<Qucs Dataset 0.0.15>
<indep x 10>
  +5.00000000000e+00
  +1.00000000000e+01
  +1.50000000000e+01
  +2.00000000000e+01
  +2.50000000000e+01
  +3.00000000000e+01
  +3.50000000000e+01
  +4.00000000000e+01
  +4.50000000000e+01
  +5.00000000000e+01
</indep>
<dep V1.I x>
  -1.57000000000e+00
  -1.04666666667e+00
  -7.85000000000e-01
  -6.28000000000e-01
  -5.23333333333e-01
  -4.48571428571e-01
  -3.92500000000e-01
  -3.48888888889e-01
  -3.14000000000e-01
  -2.85454545455e-01
</dep>
<dep izeja.V x>
  +7.85000000000e+00
  +1.04666666667e+01
  +1.17750000000e+01
  +1.25600000000e+01
  +1.30833333333e+01
  +1.34571428571e+01
  +1.37375000000e+01
  +1.39555555556e+01
  +1.41300000000e+01
  +1.42727272727e+01
</dep>
<dep _net0.V x>
  +1.57000000000e+01
  +1.57000000000e+01
  +1.57000000000e+01
  +1.57000000000e+01
  +1.57000000000e+01
  +1.57000000000e+01
  +1.57000000000e+01
  +1.57000000000e+01
  +1.57000000000e+01
  +1.57000000000e+01
</dep>
